(37.167999) can0 6E0#0210030000000000
(37.178001) can0 51C#065003002800C800
(43.181999) can0 6E0#0210030000000000
(43.194000) can0 51C#065003002800C800
(43.222000) can0 6E0#0322F10000000000
(43.234001) can0 51C#0762F10000050103
(43.263000) can0 6E0#0322F13200000000
(43.293999) can0 51C#037F227800050103
(43.324001) can0 51C#100D62F132363832
(43.342999) can0 6E0#3000000000000000
(43.363998) can0 51C#2133333533354143
(43.402000) can0 6E0#0322F15000000000
(43.433998) can0 51C#037F227833354143
(43.464001) can0 51C#0662F15013080043
(43.502998) can0 6E0#0322F15100000000
(43.534000) can0 51C#037F227813080043
(43.584000) can0 51C#100C62F151123100
(43.602001) can0 6E0#3000000000000000
(43.625000) can0 51C#2114310014310000
(43.783001) can0 6E0#0210030000000000
(43.792999) can0 51C#065003002800C800
(43.823002) can0 6E0#0322F10000000000
(43.834000) can0 51C#0762F10000050103
(43.862999) can0 6E0#0322F13200000000
(43.895000) can0 51C#037F227800050103
(43.924000) can0 51C#100D62F132363832
(43.943001) can0 6E0#3000000000000000
(43.955002) can0 51C#2133333533354143
(43.984001) can0 6E0#0322F15000000000
(44.014999) can0 51C#037F227833354143
(44.046001) can0 51C#0662F15013080043
(44.083000) can0 6E0#0322F15100000000
(44.115002) can0 51C#037F227813080043
(44.165001) can0 51C#100C62F151123100
(44.182999) can0 6E0#3000000000000000
(44.195000) can0 51C#2114310014310000
(44.362999) can0 6E0#0210030000000000
(44.374001) can0 51C#065003002800C800
(44.403999) can0 6E0#0322F10000000000
(44.416000) can0 51C#0762F10000050103
(44.443001) can0 6E0#0322F13200000000
(44.476002) can0 51C#037F227800050103
(44.504002) can0 51C#100D62F132363832
(44.523998) can0 6E0#3000000000000000
(44.535000) can0 51C#2133333533354143
(44.563000) can0 6E0#0322F15000000000
(44.595001) can0 51C#037F227833354143
(44.625000) can0 51C#0662F15013080043
(44.662998) can0 6E0#0322F15100000000
(44.695000) can0 51C#037F227813080043
(44.744999) can0 51C#100C62F151123100
(44.763000) can0 6E0#3000000000000000
(44.775002) can0 51C#2114310014310000
(44.806999) can0 6E0#0322F18C00000000
(44.846001) can0 51C#037F227814310000
(44.877998) can0 51C#101162F18C543039
(44.886002) can0 6E0#3000000000000000
(44.896000) can0 51C#214A463039393630
(44.917999) can0 51C#2230313339393630
(44.943001) can0 6E0#0322F15400000000
(44.957001) can0 51C#0562F15400C63630
(44.983002) can0 6E0#0322F19000000000
(44.998001) can0 51C#101462F190324334
(45.004002) can0 6E0#3000000000000000
(45.016998) can0 51C#2152444744473347
(45.037998) can0 51C#2252333635333831
(45.063000) can0 6E0#0322F1A000000000
(45.077999) can0 51C#101462F1A0324334
(45.084999) can0 6E0#3000000000000000
(45.097000) can0 51C#2152444744473347
(45.117001) can0 51C#2252333635333831
(45.143002) can0 6E0#0322025000000000
(45.157001) can0 51C#1033620250005F00
(45.164001) can0 6E0#3000000000000000
(45.178001) can0 51C#2101F6AC00000000
(45.198002) can0 51C#2200000000000000
(45.217999) can0 51C#2300000000000000
(45.237999) can0 51C#2400000000000000
(45.257000) can0 51C#2500000000000000
(45.278000) can0 51C#2600000000000000
(45.297001) can0 51C#2700000000000000
(45.323002) can0 6E0#0322FA0100000000
(45.356998) can0 51C#037F227800000000
(45.387001) can0 51C#10D662FA01FFFFFF
(45.403000) can0 6E0#3000000000000000
(45.417999) can0 51C#21FFFFFFFFFFFFFF
(45.437000) can0 51C#22FFFFFFFFFFFFFF
(45.457001) can0 51C#23FFFFFFFFFFFFFF
(45.477001) can0 51C#24FFFFFFFFFFFFFF
(45.497002) can0 51C#25FFFFFFFFFFFFFF
(45.516998) can0 51C#26FFFFFFFFFFFFFF
(45.536999) can0 51C#27FFFFFFFFFFFFFF
(45.556999) can0 51C#28FFFFFFFFFFFFFF
(45.580002) can0 51C#29FFFFFFFFFFFFFF
(45.597000) can0 51C#2AFFFFFFFFFFFFFF
(45.617001) can0 51C#2BFFFFFFFFFFFFFF
(45.637001) can0 51C#2CFFFFFFFFFFFFFF
(45.658001) can0 51C#2DFFFFFFFFFFFFFF
(45.676998) can0 51C#2EFFFFFFFFFFFFFF
(45.698002) can0 51C#2FFFFFFFFFFFFFFF
(45.717999) can0 51C#20FFFFFFFFFFFFFF
(45.736000) can0 51C#21FFFFFFFFFFFFFF
(45.766998) can0 51C#22FFFFFFFFFFFFFF
(45.807999) can0 51C#23FFFFFFFFFFFFFF
(45.807999) can0 51C#24FFFFFFFFFFFFFF
(45.817001) can0 51C#25FFFFFFFFFFFFFF
(45.838001) can0 51C#26FFFFFFFFFFFFFF
(45.856998) can0 51C#27FFFFFFFFFFFFFF
(45.877998) can0 51C#28FFFFFFFFFFFFFF
(45.897999) can0 51C#29FFFFFFFFFFFFFF
(45.917999) can0 51C#2AFFFFFFFFFFFFFF
(45.938000) can0 51C#2BFFFFFFFFFFFFFF
(45.957001) can0 51C#2CFFFFFFFFFFFFFF
(45.977001) can0 51C#2DFFFFFFFFFFFFFF
(45.997002) can0 51C#2EFFFFFFFFFFFFFF
(46.022999) can0 6E0#0322FA0200000000
(46.058998) can0 51C#037F2278FFFFFFFF
(46.089001) can0 51C#10D662FA02FFFFFF
(46.103001) can0 6E0#3000000000000000
(46.118999) can0 51C#21FFFFFFFFFFFFFF
(46.138000) can0 51C#22FFFFFFFFFFFFFF
(46.159000) can0 51C#23FFFFFFFFFFFFFF
(46.179001) can0 51C#24FFFFFFFFFFFFFF
(46.199001) can0 51C#25FFFFFFFFFFFFFF
(46.217999) can0 51C#26FFFFFFFFFFFFFF
(46.237999) can0 51C#27FFFFFFFFFFFFFF
(46.257999) can0 51C#28FFFFFFFFFFFFFF
(46.278999) can0 51C#29FFFFFFFFFFFFFF
(46.299000) can0 51C#2AFFFFFFFFFFFFFF
(46.319000) can0 51C#2BFFFFFFFFFFFFFF
(46.338001) can0 51C#2CFFFFFFFFFFFFFF
(46.359001) can0 51C#2DFFFFFFFFFFFFFF
(46.380001) can0 51C#2EFFFFFFFFFFFFFF
(46.397999) can0 51C#2FFFFFFFFFFFFFFF
(46.442001) can0 51C#20FFFFFFFFFFFFFF
(46.442001) can0 51C#21FFFFFFFFFFFFFF
(46.459000) can0 51C#22FFFFFFFFFFFFFF
(46.480000) can0 51C#23FFFFFFFFFFFFFF
(46.498001) can0 51C#24FFFFFFFFFFFFFF
(46.519001) can0 51C#25FFFFFFFFFFFFFF
(46.539001) can0 51C#26FFFFFFFFFFFFFF
(46.558998) can0 51C#27FFFFFFFFFFFFFF
(46.577999) can0 51C#28FFFFFFFFFFFFFF
(46.598999) can0 51C#29FFFFFFFFFFFFFF
(46.618999) can0 51C#2AFFFFFFFFFFFFFF
(46.639999) can0 51C#2BFFFFFFFFFFFFFF
(46.659000) can0 51C#2CFFFFFFFFFFFFFF
(46.678001) can0 51C#2DFFFFFFFFFFFFFF
(46.699001) can0 51C#2EFFFFFFFFFFFFFF
(46.723000) can0 6E0#0322FA0300000000
(46.759998) can0 51C#037F2278FFFFFFFF
(46.790001) can0 51C#10D662FA03FFFFFF
(46.803001) can0 6E0#3000000000000000
(46.820999) can0 51C#21FFFFFFFFFFFFFF
(46.841000) can0 51C#22FFFFFFFFFFFFFF
(46.862000) can0 51C#23FFFFFFFFFFFFFF
(46.881001) can0 51C#24FFFFFFFFFFFFFF
(46.901001) can0 51C#25FFFFFFFFFFFFFF
(46.922001) can0 51C#26FFFFFFFFFFFFFF
(46.941002) can0 51C#27FFFFFFFFFFFFFF
(46.962002) can0 51C#28FFFFFFFFFFFFFF
(46.983002) can0 51C#29FFFFFFFFFFFFFF
(47.000999) can0 51C#2AFFFFFFFFFFFFFF
(47.021999) can0 51C#2BFFFFFFFFFFFFFF
(47.042999) can0 51C#2CFFFFFFFFFFFFFF
(47.062000) can0 51C#2DFFFFFFFFFFFFFF
(47.081001) can0 51C#2EFFFFFFFFFFFFFF
(47.102001) can0 51C#2FFFFFFFFFFFFFFF
(47.122002) can0 51C#20FFFFFFFFFFFFFF
(47.140999) can0 51C#21FFFFFFFFFFFFFF
(47.161999) can0 51C#22FFFFFFFFFFFFFF
(47.181000) can0 51C#23FFFFFFFFFFFFFF
(47.201000) can0 51C#24FFFFFFFFFFFFFF
(47.222000) can0 51C#25FFFFFFFFFFFFFF
(47.241001) can0 51C#26FFFFFFFFFFFFFF
(47.261002) can0 51C#27FFFFFFFFFFFFFF
(47.280998) can0 51C#28FFFFFFFFFFFFFF
(47.301998) can0 51C#29FFFFFFFFFFFFFF
(47.320999) can0 51C#2AFFFFFFFFFFFFFF
(47.341999) can0 51C#2BFFFFFFFFFFFFFF
(47.362000) can0 51C#2CFFFFFFFFFFFFFF
(47.382000) can0 51C#2DFFFFFFFFFFFFFF
(47.402000) can0 51C#2EFFFFFFFFFFFFFF
(47.423000) can0 6E0#0322FA0400000000
(47.462002) can0 51C#037F2278FFFFFFFF
(47.493000) can0 51C#100962FA04000000
(47.502998) can0 6E0#3000000000000000
(47.522999) can0 51C#2100000004000000
(47.542999) can0 6E0#0322F10B00000000
(47.553001) can0 51C#105362F10B001401
(47.563000) can0 6E0#3000000000000000
(47.582001) can0 51C#2104ABA9F00FDC89
(47.602001) can0 51C#225822484C440248
(47.622002) can0 51C#234C4403484C4400
(47.643002) can0 51C#24484C4400000000
(47.661999) can0 51C#2500000701021510
(47.681000) can0 51C#264DFD5647000008
(47.702999) can0 51C#2700000700900180
(47.722000) can0 51C#28E7190E00000C03
(47.741001) can0 51C#290001D8FE040000
(47.763000) can0 51C#2A0B1E0000010000
(47.782001) can0 51C#2B00AD0103000000
(47.801998) can0 6E0#0322A00E00000000
(47.811001) can0 51C#103862A00E113401
(47.823002) can0 6E0#3000000000000000
(47.841999) can0 51C#21A301A100000000
(47.907001) can0 51C#2200000000000000
(47.907001) can0 51C#2300000000000000
(47.907001) can0 51C#2400000000000000
(47.935001) can0 51C#2500000000000000
(47.942001) can0 51C#2600000000000000
(47.962002) can0 51C#2700000000000000
(47.981998) can0 51C#2800000000000000
